
T1474 000:289 SEGGER J-Link V5.02f Log File (0000ms, 0275ms total)
T1474 000:289 DLL Compiled: Oct  2 2015 20:51:34 (0001ms, 0276ms total)
T1474 000:289 Logging started @ 2018-10-29 09:54 (0001ms, 0276ms total)
T1474 000:290 JLINK_SetWarnOutHandler(...) (0000ms, 0276ms total)
T1474 000:290 JLINK_OpenEx(...)
Firmware: J-Link ARM V8 compiled Nov 28 2014 13:44:46
Hardware: V8.00
Feature(s): RDI,FlashDL,FlashBP,JFlash,GDBFULL  returns O.K. (0271ms, 0547ms total)
T1474 000:561 JLINK_SetErrorOutHandler(...) (0000ms, 0547ms total)
T1474 000:561 JLINK_ExecCommand("ProjectFile = "C:\Users\wangrui\Desktop\STM32F107-freeRTOS+LWIPStack\JLinkSettings.ini"", ...)  returns 0x00 (0000ms, 0547ms total)
T1474 000:565 JLINK_ExecCommand("Device = STM32F107RC", ...)Device "STM32F107RC" selected.  returns 0x00 (0002ms, 0549ms total)
T1474 000:567 JLINK_ExecCommand("DisableConnectionTimeout", ...)  returns 0x01 (0000ms, 0549ms total)
T1474 000:567 JLINK_GetHardwareVersion()  returns 0x13880 (0000ms, 0549ms total)
T1474 000:567 JLINK_GetDLLVersion()  returns 50206 (0000ms, 0549ms total)
T1474 000:567 JLINK_GetFirmwareString(...) (0000ms, 0549ms total)
T1474 000:573 JLINK_GetDLLVersion()  returns 50206 (0000ms, 0549ms total)
T1474 000:573 JLINK_GetCompileDateTime() (0000ms, 0549ms total)
T1474 000:575 JLINK_GetFirmwareString(...) (0000ms, 0549ms total)
T1474 000:577 JLINK_GetHardwareVersion()  returns 0x13880 (0000ms, 0549ms total)
T1474 000:586 JLINK_TIF_Select(JLINKARM_TIF_SWD)  returns 0x00 (0005ms, 0554ms total)
T1474 000:591 JLINK_SetSpeed(5000) (0000ms, 0554ms total)
T1474 000:591 JLINK_GetId() >0x108 TIF>Found SWD-DP with ID 0x1BA01477 >0x0D TIF> >0x28 TIF> >0x0D TIF> >0x28 TIF> >0x0D TIF> >0x21 TIF> >0x0D TIF> >0x28 TIF> >0x0D TIF> >0x28 TIF> >0x0D TIF> >0x28 TIF> >0x0D TIF> >0x21 TIF> >0x0D TIF> >0x21 TIF> >0x0D TIF> >0x28 TIF> >0x0D TIF> >0x21 TIF> >0x0D TIF> >0x21 TIF> >0x0D TIF> >0x28 TIF> >0x0D TIF> >0x28 TIF> >0x0D TIF> >0x28 TIF> >0x0D TIF> >0x21 TIF> >0x0D TIF> >0x21 TIF> >0x0D TIF> >0x28 TIF> >0x0D TIF> >0x21 TIF> >0x0D TIF> >0x21 TIF> >0x108 TIF>
Found SWD-DP with ID 0x1BA01477 >0x0D TIF> >0x21 TIF> >0x0D TIF> >0x28 TIF> >0x0D TIF> >0x28 TIF> >0x0D TIF> >0x21 TIF> >0x0D TIF> >0x28 TIF> >0x0D TIF> >0x21 TIF> >0x0D TIF> >0x21 TIF> >0x0D TIF> >0x21 TIF> >0x0D TIF> >0x21 TIF> >0x0D TIF> >0x28 TIF> >0x0D TIF> >0x28 TIF> >0x0D TIF> >0x21 TIF> >0x0D TIF> >0x28 TIF> >0x0D TIF> >0x28 TIF> >0x0D TIF> >0x28 TIF> >0x0D TIF> >0x21 TIF> >0x0D TIF> >0x21 TIF> >0x0D TIF> >0x28 TIF> >0x0D TIF> >0x21 TIF> >0x0D TIF> >0x21 TIF>Found Cortex-M3 r1p1, Little endian.
 -- CPU_ReadMem(4 bytes @ 0xE000EDF0) -- CPU_WriteMem(4 bytes @ 0xE000EDF0) -- CPU_ReadMem(4 bytes @ 0xE0002000)FPUnit: 6 code (BP) slots and 2 literal slots -- CPU_ReadMem(4 bytes @ 0xE000EDFC) -- CPU_WriteMem(4 bytes @ 0xE000EDFC) -- CPU_ReadMem(4 bytes @ 0xE0001000) -- CPU_WriteMem(4 bytes @ 0xE0001000) -- CPU_ReadMem(4 bytes @ 0xE000ED88) -- CPU_WriteMem(4 bytes @ 0xE000ED88) -- CPU_ReadMem(4 bytes @ 0xE000ED88) -- CPU_WriteMem(4 bytes @ 0xE000ED88)CoreSight components:ROMTbl 0 @ E00FF000
 -- CPU_ReadMem(16 bytes @ 0xE00FF000) -- CPU_ReadMem(16 bytes @ 0xE000EFF0) -- CPU_ReadMem(16 bytes @ 0xE000EFE0)ROMTbl 0 [0]: FFF0F000, CID: B105E00D, PID: 001BB000 SCS -- CPU_ReadMem(16 bytes @ 0xE0001FF0) -- CPU_ReadMem(16 bytes @ 0xE0001FE0)ROMTbl 0 [1]: FFF02000, CID: B105E00D, PID: 001BB002 DWT -- CPU_ReadMem(16 bytes @ 0xE0002FF0) -- CPU_ReadMem(16 bytes @ 0xE0002FE0)ROMTbl 0 [2]: FFF03000, CID: B105E00D, PID: 000BB003 FPB -- CPU_ReadMem(16 bytes @ 0xE0000FF0)
 -- CPU_ReadMem(16 bytes @ 0xE0000FE0)ROMTbl 0 [3]: FFF01000, CID: B105E00D, PID: 001BB001 ITM -- CPU_ReadMem(16 bytes @ 0xE00FF010) -- CPU_ReadMem(16 bytes @ 0xE0040FF0) -- CPU_ReadMem(16 bytes @ 0xE0040FE0)ROMTbl 0 [4]: FFF41000, CID: B105900D, PID: 001BB923 TPIU-Lite -- CPU_ReadMem(16 bytes @ 0xE0041FF0) -- CPU_ReadMem(16 bytes @ 0xE0041FE0)ROMTbl 0 [5]: FFF42000, CID: B105900D, PID: 101BB924 ETM-M3 >0x0D TIF> >0x21 TIF>  returns 0x1BA01477 (0133ms, 0687ms total)
T1474 000:724 JLINK_GetDLLVersion()  returns 50206 (0000ms, 0687ms total)
T1474 000:724 JLINK_CORE_GetFound()  returns 0x30000FF (0000ms, 0687ms total)
T1474 000:724 JLINK_GetDebugInfo(0x100) -- Value=0xE00FF003  returns 0x00 (0000ms, 0687ms total)
T1474 000:725 JLINK_GetDebugInfo(0x100) -- Value=0xE00FF003  returns 0x00 (0001ms, 0688ms total)
T1474 000:726 JLINK_GetDebugInfo(0x101) -- Value=0xE0041000  returns 0x00 (0000ms, 0688ms total)
T1474 000:726 JLINK_GetDebugInfo(0x102) -- Value=0x00000000  returns 0x00 (0000ms, 0688ms total)
T1474 000:726 JLINK_GetDebugInfo(0x103) -- Value=0xE0040000  returns 0x00 (0000ms, 0688ms total)
T1474 000:726 JLINK_GetDebugInfo(0x104) -- Value=0xE0000000  returns 0x00 (0000ms, 0688ms total)
T1474 000:726 JLINK_GetDebugInfo(0x105) -- Value=0xE0001000  returns 0x00 (0000ms, 0688ms total)
T1474 000:726 JLINK_GetDebugInfo(0x106) -- Value=0xE0002000  returns 0x00 (0000ms, 0688ms total)
T1474 000:726 JLINK_GetDebugInfo(0x107) -- Value=0xE000E000  returns 0x00 (0000ms, 0688ms total)
T1474 000:726 JLINK_GetDebugInfo(0x10C) -- Value=0xE000EDF0  returns 0x00 (0000ms, 0688ms total)
T1474 000:726 JLINK_ReadMemU32(0xE000ED00, 0x0001 Items, ...) -- CPU is running -- CPU_ReadMem(4 bytes @ 0xE000ED00) - Data: 31 C2 1F 41  returns 0x01 (0001ms, 0689ms total)
T1474 000:727 JLINK_SetResetType(JLINKARM_RESET_TYPE_NORMAL)  returns JLINKARM_RESET_TYPE_NORMAL (0000ms, 0689ms total)
T1474 000:727 JLINK_Reset() -- CPU is running -- CPU_WriteMem(4 bytes @ 0xE000EDF0) -- CPU is running -- CPU_WriteMem(4 bytes @ 0xE000EDFC) >0x35 TIF> -- CPU is running -- CPU_WriteMem(4 bytes @ 0xE000ED0C) -- CPU is running -- CPU_ReadMem(4 bytes @ 0xE000EDF0) -- CPU is running -- CPU_ReadMem(4 bytes @ 0xE000EDF0) -- CPU is running -- CPU_WriteMem(4 bytes @ 0xE000EDF0) -- CPU is running -- CPU_WriteMem(4 bytes @ 0xE000EDFC) -- CPU is running -- CPU_ReadMem(4 bytes @ 0xE000EDF0)
 -- CPU_WriteMem(4 bytes @ 0xE0002000) -- CPU_ReadMem(4 bytes @ 0xE000EDFC) -- CPU_ReadMem(4 bytes @ 0xE0001000) (0023ms, 0712ms total)
T1474 000:750 JLINK_Halt()  returns 0x00 (0000ms, 0712ms total)
T1474 000:750 JLINK_IsHalted()  returns TRUE (0000ms, 0712ms total)
T1474 000:750 JLINK_ReadMemU32(0xE000EDF0, 0x0001 Items, ...) -- CPU_ReadMem(4 bytes @ 0xE000EDF0) - Data: 03 00 03 00  returns 0x01 (0001ms, 0713ms total)
T1474 000:751 JLINK_WriteU32(0xE000EDF0, 0xA05F0003) -- CPU_WriteMem(4 bytes @ 0xE000EDF0)  returns 0x00 (0001ms, 0714ms total)
T1474 000:752 JLINK_WriteU32(0xE000EDFC, 0x01000000) -- CPU_WriteMem(4 bytes @ 0xE000EDFC)  returns 0x00 (0001ms, 0715ms total)
T1474 000:758 JLINK_GetHWStatus(...)  returns 0x00 (0001ms, 0716ms total)
T1474 000:763 JLINK_GetNumBPUnits(Type = 0xFFFFFF00)  returns 0x06 (0000ms, 0716ms total)
T1474 000:763 JLINK_GetNumBPUnits(Type = 0xF0)  returns 0x2000 (0000ms, 0716ms total)
T1474 000:763 JLINK_GetNumWPUnits()  returns 0x04 (0000ms, 0716ms total)
T1474 000:767 JLINK_GetSpeed()  returns 0xFA0 (0000ms, 0716ms total)
T1474 000:768 JLINK_ReadMemU32(0xE000E004, 0x0001 Items, ...) -- CPU_ReadMem(4 bytes @ 0xE000E004) - Data: 02 00 00 00  returns 0x01 (0002ms, 0718ms total)
T1474 000:770 JLINK_ReadMemU32(0xE000E004, 0x0001 Items, ...) -- CPU_ReadMem(4 bytes @ 0xE000E004) - Data: 02 00 00 00  returns 0x01 (0001ms, 0719ms total)
T1474 000:771 JLINK_WriteMem(0xE0001000, 0x001C Bytes, ...) - Data: 01 00 00 00 00 00 00 00 00 00 00 00 00 00 00 00 ... -- CPU_WriteMem(28 bytes @ 0xE0001000)  returns 0x1C (0002ms, 0721ms total)
T1474 000:773 JLINK_ReadMem (0xE0001000, 0x001C Bytes, ...) -- CPU_ReadMem(28 bytes @ 0xE0001000) - Data: 01 00 00 40 00 00 00 00 00 00 00 00 00 00 00 00 ...  returns 0x00 (0001ms, 0722ms total)
T1474 000:774 JLINK_Halt()  returns 0x00 (0000ms, 0722ms total)
T1474 000:774 JLINK_IsHalted()  returns TRUE (0000ms, 0722ms total)
T1474 000:775 JLINK_WriteMem(0x20000000, 0x0164 Bytes, ...) - Data: 00 BE 0A E0 0D 78 2D 06 68 40 08 24 40 00 00 D3 ... -- CPU_WriteMem(356 bytes @ 0x20000000)  returns 0x164 (0004ms, 0726ms total)
T1474 000:779 JLINK_WriteReg(R0, 0x08000000)  returns 0x00 (0000ms, 0726ms total)
T1474 000:779 JLINK_WriteReg(R1, 0x00B71B00)  returns 0x00 (0000ms, 0726ms total)
T1474 000:779 JLINK_WriteReg(R2, 0x00000001)  returns 0x00 (0000ms, 0726ms total)
T1474 000:779 JLINK_WriteReg(R3, 0x00000000)  returns 0x00 (0000ms, 0726ms total)
T1474 000:779 JLINK_WriteReg(R4, 0x00000000)  returns 0x00 (0000ms, 0726ms total)
T1474 000:779 JLINK_WriteReg(R5, 0x00000000)  returns 0x00 (0000ms, 0726ms total)
T1474 000:779 JLINK_WriteReg(R6, 0x00000000)  returns 0x00 (0000ms, 0726ms total)
T1474 000:779 JLINK_WriteReg(R7, 0x00000000)  returns 0x00 (0000ms, 0726ms total)
T1474 000:779 JLINK_WriteReg(R8, 0x00000000)  returns 0x00 (0000ms, 0726ms total)
T1474 000:779 JLINK_WriteReg(R9, 0x20000160)  returns 0x00 (0000ms, 0726ms total)
T1474 000:779 JLINK_WriteReg(R10, 0x00000000)  returns 0x00 (0000ms, 0726ms total)
T1474 000:779 JLINK_WriteReg(R11, 0x00000000)  returns 0x00 (0000ms, 0726ms total)
T1474 000:779 JLINK_WriteReg(R12, 0x00000000)  returns 0x00 (0000ms, 0726ms total)
T1474 000:779 JLINK_WriteReg(R13 (SP), 0x20001000)  returns 0x00 (0000ms, 0726ms total)
T1474 000:779 JLINK_WriteReg(R14, 0x20000001)  returns 0x00 (0000ms, 0726ms total)
T1474 000:779 JLINK_WriteReg(R15 (PC), 0x20000038)  returns 0x00 (0000ms, 0726ms total)
T1474 000:779 JLINK_WriteReg(XPSR, 0x01000000)  returns 0x00 (0000ms, 0726ms total)
T1474 000:779 JLINK_WriteReg(MSP, 0x20001000)  returns 0x00 (0000ms, 0726ms total)
T1474 000:779 JLINK_WriteReg(PSP, 0x20001000)  returns 0x00 (0000ms, 0726ms total)
T1474 000:779 JLINK_WriteReg(CFBP, 0x00000000)  returns 0x00 (0000ms, 0726ms total)
T1474 000:779 JLINK_SetBPEx(Addr = 0x20000000, Type = 0xFFFFFFF2) -- CPU_ReadMem(2 bytes @ 0x20000000)  returns 0x00000001 (0001ms, 0727ms total)
T1474 000:780 JLINK_Go() -- CPU_WriteMem(2 bytes @ 0x20000000) -- CPU_ReadMem(4 bytes @ 0xE0001000) -- CPU_WriteMem(4 bytes @ 0xE0002008) -- CPU_WriteMem(4 bytes @ 0xE000200C) -- CPU_WriteMem(4 bytes @ 0xE0002010) -- CPU_WriteMem(4 bytes @ 0xE0002014) -- CPU_WriteMem(4 bytes @ 0xE0002018) -- CPU_WriteMem(4 bytes @ 0xE000201C) -- CPU_WriteMem(4 bytes @ 0xE0001004) (0012ms, 0739ms total)
T1474 000:792 JLINK_IsHalted() -- CPU_ReadMem(2 bytes @ 0x20000000)  returns TRUE (0004ms, 0743ms total)
T1474 000:796 JLINK_ReadReg(R15 (PC))  returns 0x20000000 (0000ms, 0739ms total)
T1474 000:796 JLINK_ClrBPEx(BPHandle = 0x00000001)  returns 0x00 (0000ms, 0739ms total)
T1474 000:796 JLINK_ReadReg(R0)  returns 0x00000000 (0000ms, 0739ms total)
T1474 000:796 JLINK_WriteReg(R0, 0x08000000)  returns 0x00 (0000ms, 0739ms total)
T1474 000:796 JLINK_WriteReg(R1, 0x00B71B00)  returns 0x00 (0000ms, 0739ms total)
T1474 000:796 JLINK_WriteReg(R2, 0x00000001)  returns 0x00 (0000ms, 0739ms total)
T1474 000:796 JLINK_WriteReg(R3, 0x00000000)  returns 0x00 (0000ms, 0739ms total)
T1474 000:796 JLINK_WriteReg(R4, 0x00000000)  returns 0x00 (0000ms, 0739ms total)
T1474 000:796 JLINK_WriteReg(R5, 0x00000000)  returns 0x00 (0000ms, 0739ms total)
T1474 000:796 JLINK_WriteReg(R6, 0x00000000)  returns 0x00 (0000ms, 0739ms total)
T1474 000:796 JLINK_WriteReg(R7, 0x00000000)  returns 0x00 (0000ms, 0739ms total)
T1474 000:796 JLINK_WriteReg(R8, 0x00000000)  returns 0x00 (0000ms, 0739ms total)
T1474 000:796 JLINK_WriteReg(R9, 0x20000160)  returns 0x00 (0000ms, 0739ms total)
T1474 000:796 JLINK_WriteReg(R10, 0x00000000)  returns 0x00 (0000ms, 0739ms total)
T1474 000:796 JLINK_WriteReg(R11, 0x00000000)  returns 0x00 (0000ms, 0739ms total)
T1474 000:796 JLINK_WriteReg(R12, 0x00000000)  returns 0x00 (0000ms, 0739ms total)
T1474 000:796 JLINK_WriteReg(R13 (SP), 0x20001000)  returns 0x00 (0000ms, 0739ms total)
T1474 000:796 JLINK_WriteReg(R14, 0x20000001)  returns 0x00 (0000ms, 0739ms total)
T1474 000:796 JLINK_WriteReg(R15 (PC), 0x2000007C)  returns 0x00 (0000ms, 0739ms total)
T1474 000:796 JLINK_WriteReg(XPSR, 0x01000000)  returns 0x00 (0000ms, 0739ms total)
T1474 000:796 JLINK_WriteReg(MSP, 0x20001000)  returns 0x00 (0000ms, 0739ms total)
T1474 000:796 JLINK_WriteReg(PSP, 0x20001000)  returns 0x00 (0000ms, 0739ms total)
T1474 000:796 JLINK_WriteReg(CFBP, 0x00000000)  returns 0x00 (0000ms, 0739ms total)
T1474 000:796 JLINK_SetBPEx(Addr = 0x20000000, Type = 0xFFFFFFF2)  returns 0x00000002 (0000ms, 0739ms total)
T1474 000:796 JLINK_Go() -- CPU_ReadMem(4 bytes @ 0xE0001000) (0004ms, 0743ms total)
T1474 000:800 JLINK_IsHalted()  returns FALSE (0001ms, 0744ms total)
T1474 000:821 JLINK_IsHalted()  returns FALSE (0001ms, 0744ms total)
T1474 000:823 JLINK_IsHalted() -- CPU_ReadMem(2 bytes @ 0x20000000)  returns TRUE (0004ms, 0747ms total)
T1474 000:827 JLINK_ReadReg(R15 (PC))  returns 0x20000000 (0000ms, 0743ms total)
T1474 000:827 JLINK_ClrBPEx(BPHandle = 0x00000002)  returns 0x00 (0000ms, 0743ms total)
T1474 000:827 JLINK_ReadReg(R0)  returns 0x00000000 (0000ms, 0743ms total)
T1474 000:878 JLINK_WriteReg(R0, 0x00000001)  returns 0x00 (0000ms, 0743ms total)
T1474 000:878 JLINK_WriteReg(R1, 0x00B71B00)  returns 0x00 (0000ms, 0743ms total)
T1474 000:878 JLINK_WriteReg(R2, 0x00000001)  returns 0x00 (0000ms, 0743ms total)
T1474 000:878 JLINK_WriteReg(R3, 0x00000000)  returns 0x00 (0000ms, 0743ms total)
T1474 000:878 JLINK_WriteReg(R4, 0x00000000)  returns 0x00 (0000ms, 0743ms total)
T1474 000:878 JLINK_WriteReg(R5, 0x00000000)  returns 0x00 (0000ms, 0743ms total)
T1474 000:878 JLINK_WriteReg(R6, 0x00000000)  returns 0x00 (0000ms, 0743ms total)
T1474 000:878 JLINK_WriteReg(R7, 0x00000000)  returns 0x00 (0000ms, 0743ms total)
T1474 000:878 JLINK_WriteReg(R8, 0x00000000)  returns 0x00 (0000ms, 0743ms total)
T1474 000:878 JLINK_WriteReg(R9, 0x20000160)  returns 0x00 (0000ms, 0743ms total)
T1474 000:878 JLINK_WriteReg(R10, 0x00000000)  returns 0x00 (0000ms, 0743ms total)
T1474 000:878 JLINK_WriteReg(R11, 0x00000000)  returns 0x00 (0000ms, 0743ms total)
T1474 000:878 JLINK_WriteReg(R12, 0x00000000)  returns 0x00 (0000ms, 0743ms total)
T1474 000:878 JLINK_WriteReg(R13 (SP), 0x20001000)  returns 0x00 (0001ms, 0744ms total)
T1474 000:879 JLINK_WriteReg(R14, 0x20000001)  returns 0x00 (0000ms, 0744ms total)
T1474 000:879 JLINK_WriteReg(R15 (PC), 0x2000006A)  returns 0x00 (0000ms, 0744ms total)
T1474 000:879 JLINK_WriteReg(XPSR, 0x01000000)  returns 0x00 (0000ms, 0744ms total)
T1474 000:879 JLINK_WriteReg(MSP, 0x20001000)  returns 0x00 (0000ms, 0744ms total)
T1474 000:879 JLINK_WriteReg(PSP, 0x20001000)  returns 0x00 (0000ms, 0744ms total)
T1474 000:879 JLINK_WriteReg(CFBP, 0x00000000)  returns 0x00 (0000ms, 0744ms total)
T1474 000:879 JLINK_SetBPEx(Addr = 0x20000000, Type = 0xFFFFFFF2)  returns 0x00000003 (0000ms, 0744ms total)
T1474 000:879 JLINK_Go() -- CPU_ReadMem(4 bytes @ 0xE0001000) (0003ms, 0747ms total)
T1474 000:882 JLINK_IsHalted() -- CPU_ReadMem(2 bytes @ 0x20000000)  returns TRUE (0004ms, 0751ms total)
T1474 000:886 JLINK_ReadReg(R15 (PC))  returns 0x20000000 (0000ms, 0747ms total)
T1474 000:886 JLINK_ClrBPEx(BPHandle = 0x00000003)  returns 0x00 (0000ms, 0747ms total)
T1474 000:886 JLINK_ReadReg(R0)  returns 0x00000000 (0000ms, 0747ms total)
T1474 000:889 JLINK_WriteMem(0x20000000, 0x0164 Bytes, ...) - Data: 00 BE 0A E0 0D 78 2D 06 68 40 08 24 40 00 00 D3 ... -- CPU_WriteMem(356 bytes @ 0x20000000)  returns 0x164 (0003ms, 0750ms total)
T1474 000:892 JLINK_WriteReg(R0, 0x08000000)  returns 0x00 (0000ms, 0750ms total)
T1474 000:892 JLINK_WriteReg(R1, 0x00B71B00)  returns 0x00 (0000ms, 0750ms total)
T1474 000:892 JLINK_WriteReg(R2, 0x00000002)  returns 0x00 (0000ms, 0750ms total)
T1474 000:892 JLINK_WriteReg(R3, 0x00000000)  returns 0x00 (0000ms, 0750ms total)
T1474 000:892 JLINK_WriteReg(R4, 0x00000000)  returns 0x00 (0000ms, 0750ms total)
T1474 000:892 JLINK_WriteReg(R5, 0x00000000)  returns 0x00 (0000ms, 0750ms total)
T1474 000:892 JLINK_WriteReg(R6, 0x00000000)  returns 0x00 (0000ms, 0750ms total)
T1474 000:892 JLINK_WriteReg(R7, 0x00000000)  returns 0x00 (0000ms, 0750ms total)
T1474 000:892 JLINK_WriteReg(R8, 0x00000000)  returns 0x00 (0000ms, 0750ms total)
T1474 000:892 JLINK_WriteReg(R9, 0x20000160)  returns 0x00 (0000ms, 0750ms total)
T1474 000:892 JLINK_WriteReg(R10, 0x00000000)  returns 0x00 (0000ms, 0750ms total)
T1474 000:892 JLINK_WriteReg(R11, 0x00000000)  returns 0x00 (0000ms, 0750ms total)
T1474 000:892 JLINK_WriteReg(R12, 0x00000000)  returns 0x00 (0000ms, 0750ms total)
T1474 000:892 JLINK_WriteReg(R13 (SP), 0x20001000)  returns 0x00 (0000ms, 0750ms total)
T1474 000:892 JLINK_WriteReg(R14, 0x20000001)  returns 0x00 (0000ms, 0750ms total)
T1474 000:892 JLINK_WriteReg(R15 (PC), 0x20000038)  returns 0x00 (0000ms, 0750ms total)
T1474 000:892 JLINK_WriteReg(XPSR, 0x01000000)  returns 0x00 (0000ms, 0750ms total)
T1474 000:892 JLINK_WriteReg(MSP, 0x20001000)  returns 0x00 (0000ms, 0750ms total)
T1474 000:892 JLINK_WriteReg(PSP, 0x20001000)  returns 0x00 (0000ms, 0750ms total)
T1474 000:892 JLINK_WriteReg(CFBP, 0x00000000)  returns 0x00 (0000ms, 0750ms total)
T1474 000:892 JLINK_SetBPEx(Addr = 0x20000000, Type = 0xFFFFFFF2) -- CPU_ReadMem(2 bytes @ 0x20000000)  returns 0x00000004 (0001ms, 0751ms total)
T1474 000:893 JLINK_Go() -- CPU_WriteMem(2 bytes @ 0x20000000) -- CPU_ReadMem(4 bytes @ 0xE0001000) (0004ms, 0755ms total)
T1474 000:897 JLINK_IsHalted() -- CPU_ReadMem(2 bytes @ 0x20000000)  returns TRUE (0004ms, 0759ms total)
T1474 000:901 JLINK_ReadReg(R15 (PC))  returns 0x20000000 (0000ms, 0755ms total)
T1474 000:901 JLINK_ClrBPEx(BPHandle = 0x00000004)  returns 0x00 (0000ms, 0755ms total)
T1474 000:901 JLINK_ReadReg(R0)  returns 0x00000000 (0000ms, 0755ms total)
T1474 000:901 JLINK_WriteMem(0x20000164, 0x0400 Bytes, ...) - Data: 78 C3 00 20 FD 01 00 08 75 0C 00 08 6D 0C 00 08 ... -- CPU_WriteMem(1024 bytes @ 0x20000164)  returns 0x400 (0007ms, 0762ms total)
T1474 000:908 JLINK_WriteReg(R0, 0x08000000)  returns 0x00 (0000ms, 0762ms total)
T1474 000:908 JLINK_WriteReg(R1, 0x00000400)  returns 0x00 (0000ms, 0762ms total)
T1474 000:908 JLINK_WriteReg(R2, 0x20000164)  returns 0x00 (0000ms, 0762ms total)
T1474 000:908 JLINK_WriteReg(R3, 0x00000000)  returns 0x00 (0000ms, 0762ms total)
T1474 000:908 JLINK_WriteReg(R4, 0x00000000)  returns 0x00 (0000ms, 0762ms total)
T1474 000:908 JLINK_WriteReg(R5, 0x00000000)  returns 0x00 (0000ms, 0762ms total)
T1474 000:908 JLINK_WriteReg(R6, 0x00000000)  returns 0x00 (0000ms, 0762ms total)
T1474 000:908 JLINK_WriteReg(R7, 0x00000000)  returns 0x00 (0000ms, 0762ms total)
T1474 000:908 JLINK_WriteReg(R8, 0x00000000)  returns 0x00 (0000ms, 0762ms total)
T1474 000:908 JLINK_WriteReg(R9, 0x20000160)  returns 0x00 (0000ms, 0762ms total)
T1474 000:908 JLINK_WriteReg(R10, 0x00000000)  returns 0x00 (0000ms, 0762ms total)
T1474 000:908 JLINK_WriteReg(R11, 0x00000000)  returns 0x00 (0000ms, 0762ms total)
T1474 000:908 JLINK_WriteReg(R12, 0x00000000)  returns 0x00 (0000ms, 0762ms total)
T1474 000:908 JLINK_WriteReg(R13 (SP), 0x20001000)  returns 0x00 (0000ms, 0762ms total)
T1474 000:908 JLINK_WriteReg(R14, 0x20000001)  returns 0x00 (0000ms, 0762ms total)
T1474 000:908 JLINK_WriteReg(R15 (PC), 0x200000F4)  returns 0x00 (0000ms, 0762ms total)
T1474 000:908 JLINK_WriteReg(XPSR, 0x01000000)  returns 0x00 (0000ms, 0762ms total)
T1474 000:908 JLINK_WriteReg(MSP, 0x20001000)  returns 0x00 (0000ms, 0762ms total)
T1474 000:908 JLINK_WriteReg(PSP, 0x20001000)  returns 0x00 (0000ms, 0762ms total)
T1474 000:908 JLINK_WriteReg(CFBP, 0x00000000)  returns 0x00 (0000ms, 0762ms total)
T1474 000:908 JLINK_SetBPEx(Addr = 0x20000000, Type = 0xFFFFFFF2)  returns 0x00000005 (0000ms, 0762ms total)
T1474 000:908 JLINK_Go() -- CPU_ReadMem(4 bytes @ 0xE0001000) (0004ms, 0766ms total)
T1474 000:912 JLINK_IsHalted()  returns FALSE (0001ms, 0767ms total)
T1474 000:921 JLINK_IsHalted()  returns FALSE (0001ms, 0767ms total)
T1474 000:923 JLINK_IsHalted()  returns FALSE (0001ms, 0767ms total)
T1474 000:925 JLINK_IsHalted()  returns FALSE (0001ms, 0767ms total)
T1474 000:927 JLINK_IsHalted()  returns FALSE (0000ms, 0766ms total)
T1474 000:928 JLINK_IsHalted()  returns FALSE (0000ms, 0766ms total)
T1474 000:929 JLINK_IsHalted()  returns FALSE (0000ms, 0766ms total)
T1474 000:930 JLINK_IsHalted()  returns FALSE (0001ms, 0767ms total)
T1474 000:932 JLINK_IsHalted()  returns FALSE (0001ms, 0767ms total)
T1474 000:934 JLINK_IsHalted()  returns FALSE (0000ms, 0766ms total)
T1474 000:936 JLINK_IsHalted()  returns FALSE (0001ms, 0767ms total)
T1474 000:938 JLINK_IsHalted()  returns FALSE (0001ms, 0767ms total)
T1474 000:940 JLINK_IsHalted()  returns FALSE (0001ms, 0767ms total)
T1474 000:942 JLINK_IsHalted() -- CPU_ReadMem(2 bytes @ 0x20000000)  returns TRUE (0006ms, 0772ms total)
T1474 000:948 JLINK_ReadReg(R15 (PC))  returns 0x20000000 (0000ms, 0766ms total)
T1474 000:948 JLINK_ClrBPEx(BPHandle = 0x00000005)  returns 0x00 (0000ms, 0766ms total)
T1474 000:948 JLINK_ReadReg(R0)  returns 0x00000000 (0000ms, 0766ms total)
T1474 000:948 JLINK_WriteMem(0x20000164, 0x0400 Bytes, ...) - Data: 21 F4 00 51 01 4A 91 61 70 47 00 00 00 90 02 40 ... -- CPU_WriteMem(1024 bytes @ 0x20000164)  returns 0x400 (0007ms, 0773ms total)
T1474 000:955 JLINK_WriteReg(R0, 0x08000400)  returns 0x00 (0000ms, 0773ms total)
T1474 000:955 JLINK_WriteReg(R1, 0x00000400)  returns 0x00 (0000ms, 0773ms total)
T1474 000:955 JLINK_WriteReg(R2, 0x20000164)  returns 0x00 (0000ms, 0773ms total)
T1474 000:955 JLINK_WriteReg(R3, 0x00000000)  returns 0x00 (0000ms, 0773ms total)
T1474 000:955 JLINK_WriteReg(R4, 0x00000000)  returns 0x00 (0000ms, 0773ms total)
T1474 000:955 JLINK_WriteReg(R5, 0x00000000)  returns 0x00 (0000ms, 0773ms total)
T1474 000:955 JLINK_WriteReg(R6, 0x00000000)  returns 0x00 (0000ms, 0773ms total)
T1474 000:955 JLINK_WriteReg(R7, 0x00000000)  returns 0x00 (0000ms, 0773ms total)
T1474 000:955 JLINK_WriteReg(R8, 0x00000000)  returns 0x00 (0000ms, 0773ms total)
T1474 000:955 JLINK_WriteReg(R9, 0x20000160)  returns 0x00 (0000ms, 0773ms total)
T1474 000:955 JLINK_WriteReg(R10, 0x00000000)  returns 0x00 (0000ms, 0773ms total)
T1474 000:955 JLINK_WriteReg(R11, 0x00000000)  returns 0x00 (0000ms, 0773ms total)
T1474 000:955 JLINK_WriteReg(R12, 0x00000000)  returns 0x00 (0000ms, 0773ms total)
T1474 000:955 JLINK_WriteReg(R13 (SP), 0x20001000)  returns 0x00 (0000ms, 0773ms total)
T1474 000:955 JLINK_WriteReg(R14, 0x20000001)  returns 0x00 (0000ms, 0773ms total)
T1474 000:955 JLINK_WriteReg(R15 (PC), 0x200000F4)  returns 0x00 (0000ms, 0773ms total)
T1474 000:955 JLINK_WriteReg(XPSR, 0x01000000)  returns 0x00 (0000ms, 0773ms total)
T1474 000:955 JLINK_WriteReg(MSP, 0x20001000)  returns 0x00 (0000ms, 0773ms total)
T1474 000:955 JLINK_WriteReg(PSP, 0x20001000)  returns 0x00 (0000ms, 0773ms total)
T1474 000:955 JLINK_WriteReg(CFBP, 0x00000000)  returns 0x00 (0000ms, 0773ms total)
T1474 000:955 JLINK_SetBPEx(Addr = 0x20000000, Type = 0xFFFFFFF2)  returns 0x00000006 (0000ms, 0773ms total)
T1474 000:955 JLINK_Go() -- CPU_ReadMem(4 bytes @ 0xE0001000) (0003ms, 0776ms total)
T1474 000:958 JLINK_IsHalted()  returns FALSE (0001ms, 0777ms total)
T1474 000:960 JLINK_IsHalted()  returns FALSE (0001ms, 0777ms total)
T1474 000:962 JLINK_IsHalted()  returns FALSE (0001ms, 0777ms total)
T1474 000:964 JLINK_IsHalted()  returns FALSE (0001ms, 0777ms total)
T1474 000:966 JLINK_IsHalted()  returns FALSE (0001ms, 0777ms total)
T1474 000:968 JLINK_IsHalted()  returns FALSE (0001ms, 0777ms total)
T1474 000:970 JLINK_IsHalted()  returns FALSE (0001ms, 0777ms total)
T1474 000:972 JLINK_IsHalted()  returns FALSE (0000ms, 0776ms total)
T1474 000:973 JLINK_IsHalted()  returns FALSE (0001ms, 0777ms total)
T1474 000:975 JLINK_IsHalted()  returns FALSE (0000ms, 0776ms total)
T1474 000:976 JLINK_IsHalted()  returns FALSE (0001ms, 0777ms total)
T1474 000:978 JLINK_IsHalted()  returns FALSE (0000ms, 0776ms total)
T1474 000:979 JLINK_IsHalted()  returns FALSE (0001ms, 0777ms total)
T1474 000:982 JLINK_IsHalted()  returns FALSE (0001ms, 0777ms total)
T1474 000:984 JLINK_IsHalted()  returns FALSE (0001ms, 0777ms total)
T1474 000:986 JLINK_IsHalted()  returns FALSE (0001ms, 0777ms total)
T1474 000:988 JLINK_IsHalted() -- CPU_ReadMem(2 bytes @ 0x20000000)  returns TRUE (0004ms, 0780ms total)
T1474 000:992 JLINK_ReadReg(R15 (PC))  returns 0x20000000 (0000ms, 0776ms total)
T1474 000:992 JLINK_ClrBPEx(BPHandle = 0x00000006)  returns 0x00 (0000ms, 0776ms total)
T1474 000:992 JLINK_ReadReg(R0)  returns 0x00000000 (0000ms, 0776ms total)
T1474 000:993 JLINK_WriteMem(0x20000164, 0x0400 Bytes, ...) - Data: 00 80 02 40 30 B1 07 49 09 68 41 F0 08 01 05 4A ... -- CPU_WriteMem(1024 bytes @ 0x20000164)  returns 0x400 (0006ms, 0782ms total)
T1474 000:999 JLINK_WriteReg(R0, 0x08000800)  returns 0x00 (0000ms, 0782ms total)
T1474 000:999 JLINK_WriteReg(R1, 0x00000400)  returns 0x00 (0000ms, 0782ms total)
T1474 000:999 JLINK_WriteReg(R2, 0x20000164)  returns 0x00 (0000ms, 0782ms total)
T1474 000:999 JLINK_WriteReg(R3, 0x00000000)  returns 0x00 (0000ms, 0782ms total)
T1474 000:999 JLINK_WriteReg(R4, 0x00000000)  returns 0x00 (0000ms, 0782ms total)
T1474 000:999 JLINK_WriteReg(R5, 0x00000000)  returns 0x00 (0000ms, 0782ms total)
T1474 000:999 JLINK_WriteReg(R6, 0x00000000)  returns 0x00 (0000ms, 0782ms total)
T1474 000:999 JLINK_WriteReg(R7, 0x00000000)  returns 0x00 (0000ms, 0782ms total)
T1474 000:999 JLINK_WriteReg(R8, 0x00000000)  returns 0x00 (0000ms, 0782ms total)
T1474 000:999 JLINK_WriteReg(R9, 0x20000160)  returns 0x00 (0000ms, 0782ms total)
T1474 000:999 JLINK_WriteReg(R10, 0x00000000)  returns 0x00 (0000ms, 0782ms total)
T1474 000:999 JLINK_WriteReg(R11, 0x00000000)  returns 0x00 (0000ms, 0782ms total)
T1474 000:999 JLINK_WriteReg(R12, 0x00000000)  returns 0x00 (0001ms, 0783ms total)
T1474 001:000 JLINK_WriteReg(R13 (SP), 0x20001000)  returns 0x00 (0000ms, 0783ms total)
T1474 001:000 JLINK_WriteReg(R14, 0x20000001)  returns 0x00 (0000ms, 0783ms total)
T1474 001:000 JLINK_WriteReg(R15 (PC), 0x200000F4)  returns 0x00 (0000ms, 0783ms total)
T1474 001:000 JLINK_WriteReg(XPSR, 0x01000000)  returns 0x00 (0000ms, 0783ms total)
T1474 001:000 JLINK_WriteReg(MSP, 0x20001000)  returns 0x00 (0000ms, 0783ms total)
T1474 001:000 JLINK_WriteReg(PSP, 0x20001000)  returns 0x00 (0000ms, 0783ms total)
T1474 001:000 JLINK_WriteReg(CFBP, 0x00000000)  returns 0x00 (0000ms, 0783ms total)
T1474 001:000 JLINK_SetBPEx(Addr = 0x20000000, Type = 0xFFFFFFF2)  returns 0x00000007 (0000ms, 0783ms total)
T1474 001:000 JLINK_Go() -- CPU_ReadMem(4 bytes @ 0xE0001000) (0003ms, 0786ms total)
T1474 001:003 JLINK_IsHalted()  returns FALSE (0002ms, 0788ms total)
T1474 001:006 JLINK_IsHalted()  returns FALSE (0000ms, 0786ms total)
T1474 001:007 JLINK_IsHalted()  returns FALSE (0000ms, 0786ms total)
T1474 001:008 JLINK_IsHalted()  returns FALSE (0000ms, 0786ms total)
T1474 001:009 JLINK_IsHalted()  returns FALSE (0001ms, 0787ms total)
T1474 001:019 JLINK_IsHalted()  returns FALSE (0001ms, 0787ms total)
T1474 001:021 JLINK_IsHalted()  returns FALSE (0000ms, 0786ms total)
T1474 001:022 JLINK_IsHalted()  returns FALSE (0001ms, 0787ms total)
T1474 001:024 JLINK_IsHalted()  returns FALSE (0000ms, 0786ms total)
T1474 001:025 JLINK_IsHalted()  returns FALSE (0001ms, 0787ms total)
T1474 001:027 JLINK_IsHalted()  returns FALSE (0001ms, 0787ms total)
T1474 001:029 JLINK_IsHalted()  returns FALSE (0001ms, 0787ms total)
T1474 001:031 JLINK_IsHalted()  returns FALSE (0000ms, 0786ms total)
T1474 001:032 JLINK_IsHalted()  returns FALSE (0000ms, 0786ms total)
T1474 001:033 JLINK_IsHalted()  returns FALSE (0000ms, 0786ms total)
T1474 001:034 JLINK_IsHalted() -- CPU_ReadMem(2 bytes @ 0x20000000)  returns TRUE (0003ms, 0789ms total)
T1474 001:037 JLINK_ReadReg(R15 (PC))  returns 0x20000000 (0000ms, 0786ms total)
T1474 001:037 JLINK_ClrBPEx(BPHandle = 0x00000007)  returns 0x00 (0000ms, 0786ms total)
T1474 001:037 JLINK_ReadReg(R0)  returns 0x00000000 (0000ms, 0786ms total)
T1474 001:038 JLINK_WriteMem(0x20000164, 0x0400 Bytes, ...) - Data: 00 23 00 24 00 21 00 25 17 4E 71 68 C0 F3 03 45 ... -- CPU_WriteMem(1024 bytes @ 0x20000164)  returns 0x400 (0006ms, 0792ms total)
T1474 001:044 JLINK_WriteReg(R0, 0x08000C00)  returns 0x00 (0000ms, 0792ms total)
T1474 001:044 JLINK_WriteReg(R1, 0x00000400)  returns 0x00 (0000ms, 0792ms total)
T1474 001:044 JLINK_WriteReg(R2, 0x20000164)  returns 0x00 (0000ms, 0792ms total)
T1474 001:044 JLINK_WriteReg(R3, 0x00000000)  returns 0x00 (0000ms, 0792ms total)
T1474 001:044 JLINK_WriteReg(R4, 0x00000000)  returns 0x00 (0000ms, 0792ms total)
T1474 001:044 JLINK_WriteReg(R5, 0x00000000)  returns 0x00 (0000ms, 0792ms total)
T1474 001:044 JLINK_WriteReg(R6, 0x00000000)  returns 0x00 (0000ms, 0792ms total)
T1474 001:044 JLINK_WriteReg(R7, 0x00000000)  returns 0x00 (0000ms, 0792ms total)
T1474 001:045 JLINK_WriteReg(R8, 0x00000000)  returns 0x00 (0000ms, 0793ms total)
T1474 001:045 JLINK_WriteReg(R9, 0x20000160)  returns 0x00 (0000ms, 0793ms total)
T1474 001:045 JLINK_WriteReg(R10, 0x00000000)  returns 0x00 (0000ms, 0793ms total)
T1474 001:045 JLINK_WriteReg(R11, 0x00000000)  returns 0x00 (0000ms, 0793ms total)
T1474 001:045 JLINK_WriteReg(R12, 0x00000000)  returns 0x00 (0000ms, 0793ms total)
T1474 001:045 JLINK_WriteReg(R13 (SP), 0x20001000)  returns 0x00 (0000ms, 0793ms total)
T1474 001:045 JLINK_WriteReg(R14, 0x20000001)  returns 0x00 (0000ms, 0793ms total)
T1474 001:045 JLINK_WriteReg(R15 (PC), 0x200000F4)  returns 0x00 (0000ms, 0793ms total)
T1474 001:045 JLINK_WriteReg(XPSR, 0x01000000)  returns 0x00 (0000ms, 0793ms total)
T1474 001:045 JLINK_WriteReg(MSP, 0x20001000)  returns 0x00 (0000ms, 0793ms total)
T1474 001:045 JLINK_WriteReg(PSP, 0x20001000)  returns 0x00 (0000ms, 0793ms total)
T1474 001:045 JLINK_WriteReg(CFBP, 0x00000000)  returns 0x00 (0000ms, 0793ms total)
T1474 001:045 JLINK_SetBPEx(Addr = 0x20000000, Type = 0xFFFFFFF2)  returns 0x00000008 (0000ms, 0793ms total)
T1474 001:045 JLINK_Go() -- CPU_ReadMem(4 bytes @ 0xE0001000) (0003ms, 0796ms total)
T1474 001:048 JLINK_IsHalted()  returns FALSE (0001ms, 0797ms total)
T1474 001:050 JLINK_IsHalted()  returns FALSE (0000ms, 0796ms total)
T1474 001:051 JLINK_IsHalted()  returns FALSE (0000ms, 0796ms total)
T1474 001:052 JLINK_IsHalted()  returns FALSE (0000ms, 0796ms total)
T1474 001:053 JLINK_IsHalted()  returns FALSE (0000ms, 0796ms total)
T1474 001:054 JLINK_IsHalted()  returns FALSE (0000ms, 0796ms total)
T1474 001:055 JLINK_IsHalted()  returns FALSE (0000ms, 0796ms total)
T1474 001:056 JLINK_IsHalted()  returns FALSE (0000ms, 0796ms total)
T1474 001:057 JLINK_IsHalted()  returns FALSE (0000ms, 0796ms total)
T1474 001:058 JLINK_IsHalted()  returns FALSE (0000ms, 0796ms total)
T1474 001:059 JLINK_IsHalted()  returns FALSE (0000ms, 0796ms total)
T1474 001:060 JLINK_IsHalted()  returns FALSE (0000ms, 0796ms total)
T1474 001:061 JLINK_IsHalted()  returns FALSE (0000ms, 0796ms total)
T1474 001:062 JLINK_IsHalted()  returns FALSE (0000ms, 0796ms total)
T1474 001:063 JLINK_IsHalted()  returns FALSE (0000ms, 0796ms total)
T1474 001:064 JLINK_IsHalted()  returns FALSE (0000ms, 0796ms total)
T1474 001:065 JLINK_IsHalted()  returns FALSE (0000ms, 0796ms total)
T1474 001:066 JLINK_IsHalted()  returns FALSE (0000ms, 0796ms total)
T1474 001:067 JLINK_IsHalted()  returns FALSE (0000ms, 0796ms total)
T1474 001:068 JLINK_IsHalted()  returns FALSE (0000ms, 0796ms total)
T1474 001:069 JLINK_IsHalted()  returns FALSE (0000ms, 0796ms total)
T1474 001:070 JLINK_IsHalted()  returns FALSE (0000ms, 0796ms total)
T1474 001:071 JLINK_IsHalted()  returns FALSE (0000ms, 0796ms total)
T1474 001:072 JLINK_IsHalted()  returns FALSE (0000ms, 0796ms total)
T1474 001:073 JLINK_IsHalted()  returns FALSE (0000ms, 0796ms total)
T1474 001:074 JLINK_IsHalted()  returns FALSE (0000ms, 0796ms total)
T1474 001:075 JLINK_IsHalted()  returns FALSE (0000ms, 0796ms total)
T1474 001:076 JLINK_IsHalted()  returns FALSE (0000ms, 0796ms total)
T1474 001:077 JLINK_IsHalted()  returns FALSE (0000ms, 0796ms total)
T1474 001:078 JLINK_IsHalted()  returns FALSE (0000ms, 0796ms total)
T1474 001:080 JLINK_IsHalted() -- CPU_ReadMem(2 bytes @ 0x20000000)  returns TRUE (0004ms, 0800ms total)
T1474 001:084 JLINK_ReadReg(R15 (PC))  returns 0x20000000 (0000ms, 0796ms total)
T1474 001:084 JLINK_ClrBPEx(BPHandle = 0x00000008)  returns 0x00 (0000ms, 0796ms total)
T1474 001:084 JLINK_ReadReg(R0)  returns 0x00000000 (0000ms, 0796ms total)
T1474 001:084 JLINK_WriteMem(0x20000164, 0x0400 Bytes, ...) - Data: 40 F0 80 60 08 60 00 BF 17 48 00 68 00 F0 00 60 ... -- CPU_WriteMem(1024 bytes @ 0x20000164)  returns 0x400 (0006ms, 0802ms total)
T1474 001:090 JLINK_WriteReg(R0, 0x08001000)  returns 0x00 (0000ms, 0802ms total)
T1474 001:090 JLINK_WriteReg(R1, 0x00000400)  returns 0x00 (0000ms, 0802ms total)
T1474 001:090 JLINK_WriteReg(R2, 0x20000164)  returns 0x00 (0000ms, 0802ms total)
T1474 001:090 JLINK_WriteReg(R3, 0x00000000)  returns 0x00 (0000ms, 0802ms total)
T1474 001:090 JLINK_WriteReg(R4, 0x00000000)  returns 0x00 (0000ms, 0802ms total)
T1474 001:091 JLINK_WriteReg(R5, 0x00000000)  returns 0x00 (0000ms, 0803ms total)
T1474 001:091 JLINK_WriteReg(R6, 0x00000000)  returns 0x00 (0000ms, 0803ms total)
T1474 001:091 JLINK_WriteReg(R7, 0x00000000)  returns 0x00 (0000ms, 0803ms total)
T1474 001:091 JLINK_WriteReg(R8, 0x00000000)  returns 0x00 (0000ms, 0803ms total)
T1474 001:091 JLINK_WriteReg(R9, 0x20000160)  returns 0x00 (0000ms, 0803ms total)
T1474 001:091 JLINK_WriteReg(R10, 0x00000000)  returns 0x00 (0000ms, 0803ms total)
T1474 001:091 JLINK_WriteReg(R11, 0x00000000)  returns 0x00 (0000ms, 0803ms total)
T1474 001:091 JLINK_WriteReg(R12, 0x00000000)  returns 0x00 (0000ms, 0803ms total)
T1474 001:091 JLINK_WriteReg(R13 (SP), 0x20001000)  returns 0x00 (0000ms, 0803ms total)
T1474 001:091 JLINK_WriteReg(R14, 0x20000001)  returns 0x00 (0000ms, 0803ms total)
T1474 001:091 JLINK_WriteReg(R15 (PC), 0x200000F4)  returns 0x00 (0000ms, 0803ms total)
T1474 001:091 JLINK_WriteReg(XPSR, 0x01000000)  returns 0x00 (0000ms, 0803ms total)
T1474 001:091 JLINK_WriteReg(MSP, 0x20001000)  returns 0x00 (0000ms, 0803ms total)
T1474 001:091 JLINK_WriteReg(PSP, 0x20001000)  returns 0x00 (0000ms, 0803ms total)
T1474 001:091 JLINK_WriteReg(CFBP, 0x00000000)  returns 0x00 (0000ms, 0803ms total)
T1474 001:091 JLINK_SetBPEx(Addr = 0x20000000, Type = 0xFFFFFFF2)  returns 0x00000009 (0000ms, 0803ms total)
T1474 001:091 JLINK_Go() -- CPU_ReadMem(4 bytes @ 0xE0001000) (0003ms, 0806ms total)
T1474 001:094 JLINK_IsHalted()  returns FALSE (0000ms, 0806ms total)
T1474 001:095 JLINK_IsHalted()  returns FALSE (0001ms, 0807ms total)
T1474 001:097 JLINK_IsHalted()  returns FALSE (0001ms, 0807ms total)
T1474 001:099 JLINK_IsHalted()  returns FALSE (0000ms, 0806ms total)
T1474 001:100 JLINK_IsHalted()  returns FALSE (0001ms, 0807ms total)
T1474 001:102 JLINK_IsHalted()  returns FALSE (0001ms, 0807ms total)
T1474 001:104 JLINK_IsHalted()  returns FALSE (0001ms, 0807ms total)
T1474 001:106 JLINK_IsHalted()  returns FALSE (0001ms, 0807ms total)
T1474 001:108 JLINK_IsHalted()  returns FALSE (0000ms, 0806ms total)
T1474 001:109 JLINK_IsHalted()  returns FALSE (0001ms, 0807ms total)
T1474 001:111 JLINK_IsHalted()  returns FALSE (0001ms, 0807ms total)
T1474 001:113 JLINK_IsHalted()  returns FALSE (0001ms, 0807ms total)
T1474 001:115 JLINK_IsHalted()  returns FALSE (0000ms, 0806ms total)
T1474 001:116 JLINK_IsHalted()  returns FALSE (0000ms, 0806ms total)
T1474 001:117 JLINK_IsHalted()  returns FALSE (0000ms, 0806ms total)
T1474 001:118 JLINK_IsHalted()  returns FALSE (0000ms, 0806ms total)
T1474 001:119 JLINK_IsHalted()  returns FALSE (0000ms, 0806ms total)
T1474 001:120 JLINK_IsHalted()  returns FALSE (0000ms, 0806ms total)
T1474 001:121 JLINK_IsHalted()  returns FALSE (0000ms, 0806ms total)
T1474 001:128 JLINK_IsHalted() -- CPU_ReadMem(2 bytes @ 0x20000000)  returns TRUE (0004ms, 0810ms total)
T1474 001:132 JLINK_ReadReg(R15 (PC))  returns 0x20000000 (0000ms, 0806ms total)
T1474 001:132 JLINK_ClrBPEx(BPHandle = 0x00000009)  returns 0x00 (0000ms, 0806ms total)
T1474 001:132 JLINK_ReadReg(R0)  returns 0x00000000 (0000ms, 0806ms total)
T1474 001:133 JLINK_WriteMem(0x20000164, 0x0400 Bytes, ...) - Data: 97 E7 60 6A 20 B1 00 22 11 46 20 46 63 6A 98 47 ... -- CPU_WriteMem(1024 bytes @ 0x20000164)  returns 0x400 (0007ms, 0813ms total)
T1474 001:140 JLINK_WriteReg(R0, 0x08001400)  returns 0x00 (0000ms, 0813ms total)
T1474 001:140 JLINK_WriteReg(R1, 0x00000400)  returns 0x00 (0000ms, 0813ms total)
T1474 001:140 JLINK_WriteReg(R2, 0x20000164)  returns 0x00 (0000ms, 0813ms total)
T1474 001:140 JLINK_WriteReg(R3, 0x00000000)  returns 0x00 (0000ms, 0813ms total)
T1474 001:140 JLINK_WriteReg(R4, 0x00000000)  returns 0x00 (0000ms, 0813ms total)
T1474 001:140 JLINK_WriteReg(R5, 0x00000000)  returns 0x00 (0000ms, 0813ms total)
T1474 001:140 JLINK_WriteReg(R6, 0x00000000)  returns 0x00 (0000ms, 0813ms total)
T1474 001:140 JLINK_WriteReg(R7, 0x00000000)  returns 0x00 (0000ms, 0813ms total)
T1474 001:140 JLINK_WriteReg(R8, 0x00000000)  returns 0x00 (0000ms, 0813ms total)
T1474 001:140 JLINK_WriteReg(R9, 0x20000160)  returns 0x00 (0000ms, 0813ms total)
T1474 001:140 JLINK_WriteReg(R10, 0x00000000)  returns 0x00 (0000ms, 0813ms total)
T1474 001:140 JLINK_WriteReg(R11, 0x00000000)  returns 0x00 (0000ms, 0813ms total)
T1474 001:140 JLINK_WriteReg(R12, 0x00000000)  returns 0x00 (0000ms, 0813ms total)
T1474 001:140 JLINK_WriteReg(R13 (SP), 0x20001000)  returns 0x00 (0000ms, 0813ms total)
T1474 001:140 JLINK_WriteReg(R14, 0x20000001)  returns 0x00 (0000ms, 0813ms total)
T1474 001:140 JLINK_WriteReg(R15 (PC), 0x200000F4)  returns 0x00 (0000ms, 0813ms total)
T1474 001:140 JLINK_WriteReg(XPSR, 0x01000000)  returns 0x00 (0000ms, 0813ms total)
T1474 001:140 JLINK_WriteReg(MSP, 0x20001000)  returns 0x00 (0000ms, 0813ms total)
T1474 001:140 JLINK_WriteReg(PSP, 0x20001000)  returns 0x00 (0000ms, 0813ms total)
T1474 001:140 JLINK_WriteReg(CFBP, 0x00000000)  returns 0x00 (0000ms, 0813ms total)
T1474 001:140 JLINK_SetBPEx(Addr = 0x20000000, Type = 0xFFFFFFF2)  returns 0x0000000A (0000ms, 0813ms total)
T1474 001:140 JLINK_Go() -- CPU_ReadMem(4 bytes @ 0xE0001000) (0004ms, 0817ms total)
T1474 001:144 JLINK_IsHalted()  returns FALSE (0000ms, 0817ms total)
T1474 001:145 JLINK_IsHalted()  returns FALSE (0001ms, 0818ms total)
T1474 001:147 JLINK_IsHalted()  returns FALSE (0001ms, 0818ms total)
T1474 001:149 JLINK_IsHalted()  returns FALSE (0001ms, 0818ms total)
T1474 001:151 JLINK_IsHalted()  returns FALSE (0001ms, 0818ms total)
T1474 001:153 JLINK_IsHalted()  returns FALSE (0000ms, 0817ms total)
T1474 001:154 JLINK_IsHalted()  returns FALSE (0001ms, 0818ms total)
T1474 001:156 JLINK_IsHalted()  returns FALSE (0001ms, 0818ms total)
T1474 001:158 JLINK_IsHalted()  returns FALSE (0001ms, 0818ms total)
T1474 001:160 JLINK_IsHalted()  returns FALSE (0000ms, 0817ms total)
T1474 001:161 JLINK_IsHalted()  returns FALSE (0001ms, 0818ms total)
T1474 001:163 JLINK_IsHalted()  returns FALSE (0001ms, 0818ms total)
T1474 001:165 JLINK_IsHalted()  returns FALSE (0001ms, 0818ms total)
T1474 001:167 JLINK_IsHalted()  returns FALSE (0000ms, 0817ms total)
T1474 001:168 JLINK_IsHalted()  returns FALSE (0000ms, 0817ms total)
T1474 001:169 JLINK_IsHalted()  returns FALSE (0000ms, 0817ms total)
T1474 001:170 JLINK_IsHalted()  returns FALSE (0000ms, 0817ms total)
T1474 001:171 JLINK_IsHalted()  returns FALSE (0000ms, 0817ms total)
T1474 001:172 JLINK_IsHalted()  returns FALSE (0001ms, 0818ms total)
T1474 001:174 JLINK_IsHalted() -- CPU_ReadMem(2 bytes @ 0x20000000)  returns TRUE (0004ms, 0821ms total)
T1474 001:178 JLINK_ReadReg(R15 (PC))  returns 0x20000000 (0000ms, 0817ms total)
T1474 001:178 JLINK_ClrBPEx(BPHandle = 0x0000000A)  returns 0x00 (0000ms, 0817ms total)
T1474 001:178 JLINK_ReadReg(R0)  returns 0x00000000 (0000ms, 0817ms total)
T1474 001:178 JLINK_WriteMem(0x20000164, 0x0400 Bytes, ...) - Data: 00 22 04 21 20 46 63 6A 98 47 60 6A 20 B1 00 22 ... -- CPU_WriteMem(1024 bytes @ 0x20000164)  returns 0x400 (0007ms, 0824ms total)
T1474 001:185 JLINK_WriteReg(R0, 0x08001800)  returns 0x00 (0000ms, 0824ms total)
T1474 001:185 JLINK_WriteReg(R1, 0x00000400)  returns 0x00 (0000ms, 0824ms total)
T1474 001:185 JLINK_WriteReg(R2, 0x20000164)  returns 0x00 (0000ms, 0824ms total)
T1474 001:185 JLINK_WriteReg(R3, 0x00000000)  returns 0x00 (0000ms, 0824ms total)
T1474 001:185 JLINK_WriteReg(R4, 0x00000000)  returns 0x00 (0000ms, 0824ms total)
T1474 001:185 JLINK_WriteReg(R5, 0x00000000)  returns 0x00 (0000ms, 0824ms total)
T1474 001:185 JLINK_WriteReg(R6, 0x00000000)  returns 0x00 (0000ms, 0824ms total)
T1474 001:185 JLINK_WriteReg(R7, 0x00000000)  returns 0x00 (0000ms, 0824ms total)
T1474 001:185 JLINK_WriteReg(R8, 0x00000000)  returns 0x00 (0000ms, 0824ms total)
T1474 001:185 JLINK_WriteReg(R9, 0x20000160)  returns 0x00 (0000ms, 0824ms total)
T1474 001:185 JLINK_WriteReg(R10, 0x00000000)  returns 0x00 (0000ms, 0824ms total)
T1474 001:185 JLINK_WriteReg(R11, 0x00000000)  returns 0x00 (0000ms, 0824ms total)
T1474 001:185 JLINK_WriteReg(R12, 0x00000000)  returns 0x00 (0000ms, 0824ms total)
T1474 001:185 JLINK_WriteReg(R13 (SP), 0x20001000)  returns 0x00 (0000ms, 0824ms total)
T1474 001:185 JLINK_WriteReg(R14, 0x20000001)  returns 0x00 (0000ms, 0824ms total)
T1474 001:185 JLINK_WriteReg(R15 (PC), 0x200000F4)  returns 0x00 (0000ms, 0824ms total)
T1474 001:185 JLINK_WriteReg(XPSR, 0x01000000)  returns 0x00 (0000ms, 0824ms total)
T1474 001:185 JLINK_WriteReg(MSP, 0x20001000)  returns 0x00 (0001ms, 0825ms total)
T1474 001:186 JLINK_WriteReg(PSP, 0x20001000)  returns 0x00 (0000ms, 0825ms total)
T1474 001:186 JLINK_WriteReg(CFBP, 0x00000000)  returns 0x00 (0000ms, 0825ms total)
T1474 001:186 JLINK_SetBPEx(Addr = 0x20000000, Type = 0xFFFFFFF2)  returns 0x0000000B (0000ms, 0825ms total)
T1474 001:186 JLINK_Go() -- CPU_ReadMem(4 bytes @ 0xE0001000) (0003ms, 0828ms total)
T1474 001:189 JLINK_IsHalted()  returns FALSE (0001ms, 0829ms total)
T1474 001:191 JLINK_IsHalted()  returns FALSE (0001ms, 0829ms total)
T1474 001:193 JLINK_IsHalted()  returns FALSE (0001ms, 0829ms total)
T1474 001:195 JLINK_IsHalted()  returns FALSE (0001ms, 0829ms total)
T1474 001:197 JLINK_IsHalted()  returns FALSE (0001ms, 0829ms total)
T1474 001:199 JLINK_IsHalted()  returns FALSE (0001ms, 0829ms total)
T1474 001:201 JLINK_IsHalted()  returns FALSE (0001ms, 0829ms total)
T1474 001:203 JLINK_IsHalted()  returns FALSE (0001ms, 0829ms total)
T1474 001:205 JLINK_IsHalted()  returns FALSE (0001ms, 0829ms total)
T1474 001:207 JLINK_IsHalted()  returns FALSE (0001ms, 0829ms total)
T1474 001:209 JLINK_IsHalted()  returns FALSE (0001ms, 0829ms total)
T1474 001:211 JLINK_IsHalted()  returns FALSE (0001ms, 0829ms total)
T1474 001:213 JLINK_IsHalted()  returns FALSE (0000ms, 0828ms total)
T1474 001:215 JLINK_IsHalted()  returns FALSE (0001ms, 0829ms total)
T1474 001:217 JLINK_IsHalted()  returns FALSE (0000ms, 0828ms total)
T1474 001:218 JLINK_IsHalted()  returns FALSE (0001ms, 0829ms total)
T1474 001:220 JLINK_IsHalted() -- CPU_ReadMem(2 bytes @ 0x20000000)  returns TRUE (0004ms, 0832ms total)
T1474 001:224 JLINK_ReadReg(R15 (PC))  returns 0x20000000 (0000ms, 0828ms total)
T1474 001:224 JLINK_ClrBPEx(BPHandle = 0x0000000B)  returns 0x00 (0000ms, 0828ms total)
T1474 001:224 JLINK_ReadReg(R0)  returns 0x00000000 (0000ms, 0828ms total)
T1474 001:224 JLINK_WriteMem(0x20000164, 0x0400 Bytes, ...) - Data: 74 65 20 3E 3D 20 45 54 48 41 52 50 5F 53 54 41 ... -- CPU_WriteMem(1024 bytes @ 0x20000164)  returns 0x400 (0007ms, 0835ms total)
T1474 001:231 JLINK_WriteReg(R0, 0x08001C00)  returns 0x00 (0000ms, 0835ms total)
T1474 001:231 JLINK_WriteReg(R1, 0x00000400)  returns 0x00 (0000ms, 0835ms total)
T1474 001:231 JLINK_WriteReg(R2, 0x20000164)  returns 0x00 (0000ms, 0835ms total)
T1474 001:231 JLINK_WriteReg(R3, 0x00000000)  returns 0x00 (0000ms, 0835ms total)
T1474 001:231 JLINK_WriteReg(R4, 0x00000000)  returns 0x00 (0000ms, 0835ms total)
T1474 001:231 JLINK_WriteReg(R5, 0x00000000)  returns 0x00 (0000ms, 0835ms total)
T1474 001:231 JLINK_WriteReg(R6, 0x00000000)  returns 0x00 (0000ms, 0835ms total)
T1474 001:231 JLINK_WriteReg(R7, 0x00000000)  returns 0x00 (0000ms, 0835ms total)
T1474 001:231 JLINK_WriteReg(R8, 0x00000000)  returns 0x00 (0000ms, 0835ms total)
T1474 001:231 JLINK_WriteReg(R9, 0x20000160)  returns 0x00 (0000ms, 0835ms total)
T1474 001:231 JLINK_WriteReg(R10, 0x00000000)  returns 0x00 (0000ms, 0835ms total)
T1474 001:231 JLINK_WriteReg(R11, 0x00000000)  returns 0x00 (0000ms, 0835ms total)
T1474 001:231 JLINK_WriteReg(R12, 0x00000000)  returns 0x00 (0000ms, 0835ms total)
T1474 001:231 JLINK_WriteReg(R13 (SP), 0x20001000)  returns 0x00 (0000ms, 0835ms total)
T1474 001:231 JLINK_WriteReg(R14, 0x20000001)  returns 0x00 (0000ms, 0835ms total)
T1474 001:231 JLINK_WriteReg(R15 (PC), 0x200000F4)  returns 0x00 (0000ms, 0835ms total)
T1474 001:231 JLINK_WriteReg(XPSR, 0x01000000)  returns 0x00 (0000ms, 0835ms total)
T1474 001:231 JLINK_WriteReg(MSP, 0x20001000)  returns 0x00 (0000ms, 0835ms total)
T1474 001:231 JLINK_WriteReg(PSP, 0x20001000)  returns 0x00 (0000ms, 0835ms total)
T1474 001:231 JLINK_WriteReg(CFBP, 0x00000000)  returns 0x00 (0000ms, 0835ms total)
T1474 001:231 JLINK_SetBPEx(Addr = 0x20000000, Type = 0xFFFFFFF2)  returns 0x0000000C (0001ms, 0836ms total)
T1474 001:232 JLINK_Go() -- CPU_ReadMem(4 bytes @ 0xE0001000) (0002ms, 0838ms total)
T1474 001:234 JLINK_IsHalted()  returns FALSE (0001ms, 0839ms total)
T1474 001:242 JLINK_IsHalted()  returns FALSE (0001ms, 0839ms total)
T1474 001:244 JLINK_IsHalted()  returns FALSE (0001ms, 0839ms total)
T1474 001:246 JLINK_IsHalted()  returns FALSE (0000ms, 0838ms total)
T1474 001:247 JLINK_IsHalted()  returns FALSE (0001ms, 0839ms total)
T1474 001:249 JLINK_IsHalted()  returns FALSE (0001ms, 0839ms total)
T1474 001:251 JLINK_IsHalted()  returns FALSE (0001ms, 0839ms total)
T1474 001:253 JLINK_IsHalted()  returns FALSE (0001ms, 0839ms total)
T1474 001:255 JLINK_IsHalted()  returns FALSE (0001ms, 0839ms total)
T1474 001:257 JLINK_IsHalted()  returns FALSE (0000ms, 0838ms total)
T1474 001:258 JLINK_IsHalted()  returns FALSE (0001ms, 0839ms total)
T1474 001:260 JLINK_IsHalted()  returns FALSE (0000ms, 0838ms total)
T1474 001:261 JLINK_IsHalted()  returns FALSE (0001ms, 0839ms total)
T1474 001:263 JLINK_IsHalted()  returns FALSE (0000ms, 0838ms total)
T1474 001:264 JLINK_IsHalted()  returns FALSE (0000ms, 0838ms total)
T1474 001:265 JLINK_IsHalted() -- CPU_ReadMem(2 bytes @ 0x20000000)  returns TRUE (0003ms, 0841ms total)
T1474 001:268 JLINK_ReadReg(R15 (PC))  returns 0x20000000 (0000ms, 0838ms total)
T1474 001:268 JLINK_ClrBPEx(BPHandle = 0x0000000C)  returns 0x00 (0000ms, 0838ms total)
T1474 001:268 JLINK_ReadReg(R0)  returns 0x00000000 (0000ms, 0838ms total)
T1474 001:268 JLINK_WriteMem(0x20000164, 0x0400 Bytes, ...) - Data: 6E 20 22 25 73 22 20 66 61 69 6C 65 64 20 61 74 ... -- CPU_WriteMem(1024 bytes @ 0x20000164)  returns 0x400 (0007ms, 0845ms total)
T1474 001:275 JLINK_WriteReg(R0, 0x08002000)  returns 0x00 (0000ms, 0845ms total)
T1474 001:275 JLINK_WriteReg(R1, 0x00000400)  returns 0x00 (0000ms, 0845ms total)
T1474 001:275 JLINK_WriteReg(R2, 0x20000164)  returns 0x00 (0000ms, 0845ms total)
T1474 001:275 JLINK_WriteReg(R3, 0x00000000)  returns 0x00 (0000ms, 0845ms total)
T1474 001:275 JLINK_WriteReg(R4, 0x00000000)  returns 0x00 (0000ms, 0845ms total)
T1474 001:275 JLINK_WriteReg(R5, 0x00000000)  returns 0x00 (0000ms, 0845ms total)
T1474 001:275 JLINK_WriteReg(R6, 0x00000000)  returns 0x00 (0000ms, 0845ms total)
T1474 001:275 JLINK_WriteReg(R7, 0x00000000)  returns 0x00 (0000ms, 0845ms total)
T1474 001:275 JLINK_WriteReg(R8, 0x00000000)  returns 0x00 (0000ms, 0845ms total)
T1474 001:275 JLINK_WriteReg(R9, 0x20000160)  returns 0x00 (0000ms, 0845ms total)
T1474 001:275 JLINK_WriteReg(R10, 0x00000000)  returns 0x00 (0000ms, 0845ms total)
T1474 001:275 JLINK_WriteReg(R11, 0x00000000)  returns 0x00 (0000ms, 0845ms total)
T1474 001:275 JLINK_WriteReg(R12, 0x00000000)  returns 0x00 (0000ms, 0845ms total)
T1474 001:275 JLINK_WriteReg(R13 (SP), 0x20001000)  returns 0x00 (0000ms, 0845ms total)
T1474 001:275 JLINK_WriteReg(R14, 0x20000001)  returns 0x00 (0000ms, 0845ms total)
T1474 001:275 JLINK_WriteReg(R15 (PC), 0x200000F4)  returns 0x00 (0000ms, 0845ms total)
T1474 001:275 JLINK_WriteReg(XPSR, 0x01000000)  returns 0x00 (0000ms, 0845ms total)
T1474 001:275 JLINK_WriteReg(MSP, 0x20001000)  returns 0x00 (0000ms, 0845ms total)
T1474 001:275 JLINK_WriteReg(PSP, 0x20001000)  returns 0x00 (0000ms, 0845ms total)
T1474 001:275 JLINK_WriteReg(CFBP, 0x00000000)  returns 0x00 (0000ms, 0845ms total)
T1474 001:275 JLINK_SetBPEx(Addr = 0x20000000, Type = 0xFFFFFFF2)  returns 0x0000000D (0000ms, 0845ms total)
T1474 001:275 JLINK_Go() -- CPU_ReadMem(4 bytes @ 0xE0001000) (0003ms, 0848ms total)
T1474 001:278 JLINK_IsHalted()  returns FALSE (0001ms, 0849ms total)
T1474 001:280 JLINK_IsHalted()  returns FALSE (0001ms, 0849ms total)
T1474 001:282 JLINK_IsHalted()  returns FALSE (0001ms, 0849ms total)
T1474 001:284 JLINK_IsHalted()  returns FALSE (0001ms, 0849ms total)
T1474 001:286 JLINK_IsHalted()  returns FALSE (0001ms, 0849ms total)
T1474 001:288 JLINK_IsHalted()  returns FALSE (0001ms, 0849ms total)
T1474 001:290 JLINK_IsHalted()  returns FALSE (0001ms, 0849ms total)
T1474 001:292 JLINK_IsHalted()  returns FALSE (0001ms, 0849ms total)
T1474 001:294 JLINK_IsHalted()  returns FALSE (0001ms, 0849ms total)
T1474 001:296 JLINK_IsHalted()  returns FALSE (0001ms, 0849ms total)
T1474 001:298 JLINK_IsHalted()  returns FALSE (0001ms, 0849ms total)
T1474 001:300 JLINK_IsHalted()  returns FALSE (0001ms, 0849ms total)
T1474 001:302 JLINK_IsHalted()  returns FALSE (0001ms, 0849ms total)
T1474 001:304 JLINK_IsHalted()  returns FALSE (0000ms, 0848ms total)
T1474 001:305 JLINK_IsHalted()  returns FALSE (0000ms, 0848ms total)
T1474 001:306 JLINK_IsHalted()  returns FALSE (0000ms, 0848ms total)
T1474 001:307 JLINK_IsHalted()  returns FALSE (0000ms, 0848ms total)
T1474 001:308 JLINK_IsHalted()  returns FALSE (0000ms, 0848ms total)
